Time,Mpl,Mrbc,Vin,Vout,Summary_flux_to_RBC,A,B,d,Kin,c,Kout,ModelValue_1,ModelValue_2,ModelValue_5,ModelValue_3,RBC
0.0,0.0,0.0,0.0,0.0,0.0,1382.06142698431,1382.06142698431,-0.783006790599975,0.0440064186883752,-0.215608884195034,0.0399798384276102,1382.06142698431,1382.06142698431,-0.215608884195034,-0.783006790599975,2198.0
0.04,30.74755039251977,0.027227997996195463,2974.0908885208783,2.392678971388225,2971.69820954949,1382.06142698431,1382.06142698431,-0.783006790599975,0.0440064186883752,-0.215608884195034,0.0399798384276102,1382.06142698431,1382.06142698431,-0.215608884195034,-0.783006790599975,2198.0
0.08,60.28296639440873,0.10742064040033716,5830.936734727266,9.43966234369698,5821.4970723835695,1382.06142698431,1382.06142698431,-0.783006790599975,0.0440064186883752,-0.215608884195034,0.0399798384276102,1382.06142698431,1382.06142698431,-0.215608884195034,-0.783006790599975,2198.0
0.12,88.6458913779893,0.23839631678560427,8574.37208774289,20.949239606563186,8553.422848136326,1382.06142698431,1382.06142698431,-0.783006790599975,0.0440064186883752,-0.215608884195034,0.0399798384276102,1382.06142698431,1382.06142698431,-0.215608884195034,-0.783006790599975,2198.0
0.16,115.87472684678255,0.41804533417544953,11208.11137555533,36.73602004482022,11171.37535551051,1382.06142698431,1382.06142698431,-0.783006790599975,0.0440064186883752,-0.215608884195034,0.0399798384276102,1382.06142698431,1382.06142698431,-0.215608884195034,-0.783006790599975,2198.0
0.2,142.0066708955735,0.6443286194196888,13735.752625108462,56.62081870890809,13679.131806399553,1382.06142698431,1382.06142698431,-0.783006790599975,0.0440064186883752,-0.215608884195034,0.0399798384276102,1382.06142698431,1382.06142698431,-0.215608884195034,-0.783006790599975,2198.0
0.24,167.07775548313066,0.9152744601019329,16160.781067547563,80.43037001988198,16080.350697527681,1382.06142698431,1382.06142698431,-0.783006790599975,0.0440064186883752,-0.215608884195034,0.0399798384276102,1382.06142698431,1382.06142698431,-0.215608884195034,-0.783006790599975,2198.0
0.28,191.12288255419617,1.2289761030460726,18486.57263215884,107.99711673652486,18378.575515422315,1382.06142698431,1382.06142698431,-0.783006790599975,0.0440064186883752,-0.215608884195034,0.0399798384276102,1382.06142698431,1382.06142698431,-0.215608884195034,-0.783006790599975,2198.0
0.32,214.1758590462564,1.5835904635788633,20716.397332438115,139.15909653091327,20577.238235907203,1382.06142698431,1382.06142698431,-0.783006790599975,0.0440064186883752,-0.215608884195034,0.0399798384276102,1382.06142698431,1382.06142698431,-0.215608884195034,-0.783006790599975,2198.0
0.36,236.26943081547824,1.9773357740668553,22853.422547614617,173.75973535198946,22679.662812262628,1382.06142698431,1382.06142698431,-0.783006790599975,0.0440064186883752,-0.215608884195034,0.0399798384276102,1382.06142698431,1382.06142698431,-0.215608884195034,-0.783006790599975,2198.0
0.4,257.43531551515764,2.408490233067521,24900.716202855332,211.64772871879174,24689.06847413654,1382.06142698431,1382.06142698431,-0.783006790599975,0.0440064186883752,-0.215608884195034,0.0399798384276102,1382.06142698431,1382.06142698431,-0.215608884195034,-0.783006790599975,2198.0
0.44,277.7042344589911,2.87538931953639,26861.249851275294,252.6768057045669,26608.573045570727,1382.06142698431,1382.06142698431,-0.783006790599975,0.0440064186883752,-0.215608884195034,0.0399798384276102,1382.06142698431,1382.06142698431,-0.215608884195034,-0.783006790599975,2198.0
0.48,297.10594350048336,3.376425147732935,28737.901660782467,296.70567224868324,28441.195988533782,1382.06142698431,1382.06142698431,-0.783006790599975,0.0440064186883752,-0.215608884195034,0.0399798384276102,1382.06142698431,1382.06142698431,-0.215608884195034,-0.783006790599975,2198.0
0.52,315.66926295884093,3.910043796854393,30533.459308693007,343.5977764963737,30189.86153219663,1382.06142698431,1382.06142698431,-0.783006790599975,0.0440064186883752,-0.215608884195034,0.0399798384276102,1382.06142698431,1382.06142698431,-0.215608884195034,-0.783006790599975,2198.0
0.56,333.42210662076457,4.474743152874658,32250.622786961747,393.22111914885056,31857.401667812897,1382.06142698431,1382.06142698431,-0.783006790599975,0.0440064186883752,-0.215608884195034,0.0399798384276102,1382.06142698431,1382.06142698431,-0.215608884195034,-0.783006790599975,2198.0
0.6,350.391509846645,5.069072374612008,33892.00712078516,445.4482065436413,33446.55891424152,1382.06142698431,1382.06142698431,-0.783006790599975,0.0440064186883752,-0.215608884195034,0.0399798384276102,1382.06142698431,1382.06142698431,-0.215608884195034,-0.783006790599975,2198.0
0.64,366.6036568087942,5.691629094737915,35460.145003249425,500.1558046913207,34959.989198558105,1382.06142698431,1382.06142698431,-0.783006790599975,0.0440064186883752,-0.215608884195034,0.0399798384276102,1382.06142698431,1382.06142698431,-0.215608884195034,-0.783006790599975,2198.0
0.68,382.0839068884792,6.341059032598862,36957.489348612835,557.2249052519632,36400.26444336087,1382.06142698431,1382.06142698431,-0.783006790599975,0.0440064186883752,-0.215608884195034,0.0399798384276102,1382.06142698431,1382.06142698431,-0.215608884195034,-0.783006790599975,2198.0
0.72,396.85682025771496,7.016055031205529,38386.41576673299,616.5406409099074,37769.875125823084,1382.06142698431,1382.06142698431,-0.783006790599975,0.0440064186883752,-0.215608884195034,0.0399798384276102,1382.06142698431,1382.06142698431,-0.215608884195034,-0.783006790599975,2198.0
0.76,410.94618267096166,7.715352026129185,39749.22496107127,677.991843262082,39071.233117809184,1382.06142698431,1382.06142698431,-0.783006790599975,0.0440064186883752,-0.215608884195034,0.0399798384276102,1382.06142698431,1382.06142698431,-0.215608884195034,-0.783006790599975,2198.0
0.8,424.37502949110035,8.437726688019886,41048.14505263191,741.4710114040463,40306.67404122786,1382.06142698431,1382.06142698431,-0.783006790599975,0.0440064186883752,-0.215608884195034,0.0399798384276102,1382.06142698431,1382.06142698431,-0.215608884195034,-0.783006790599975,2198.0
0.84,437.1656689733095,9.18200351595556,42285.333832120756,806.8748473872153,41478.45898473354,1382.06142698431,1382.06142698431,-0.783006790599975,0.0440064186883752,-0.215608884195034,0.0399798384276102,1382.06142698431,1382.06142698431,-0.215608884195034,-0.783006790599975,2198.0
0.88,449.3397048297352,9.947041313245265,43462.88094253807,874.1030677708077,42588.77787476726,1382.06142698431,1382.06142698431,-0.783006790599975,0.0440064186883752,-0.215608884195034,0.0399798384276102,1382.06142698431,1382.06142698431,-0.215608884195034,-0.783006790599975,2198.0
0.92,460.9180580971422,10.731740206889183,44582.8099943512,943.0590204617017,43639.750973889495,1382.06142698431,1382.06142698431,-0.783006790599975,0.0440064186883752,-0.215608884195034,0.0399798384276102,1382.06142698431,1382.06142698431,-0.215608884195034,-0.783006790599975,2198.0
0.96,471.92098832905174,11.53504041679557,45647.080615327686,1013.6495765585297,44633.43103876916,1382.06142698431,1382.06142698431,-0.783006790599975,0.0440064186883752,-0.215608884195034,0.0399798384276102,1382.06142698431,1382.06142698431,-0.215608884195034,-0.783006790599975,2198.0
1.0,482.3681141331999,12.355916929629203,46657.590437043684,1085.7846623124647,45571.80577473122,1382.06142698431,1382.06142698431,-0.783006790599975,0.0440064186883752,-0.215608884195034,0.0399798384276102,1382.06142698431,1382.06142698431,-0.215608884195034,-0.783006790599975,2198.0
1.04,492.27843307452156,13.193381175188152,47616.17702002204,1159.377406439976,46456.799613582065,1382.06142698431,1382.06142698431,-0.783006790599975,0.0440064186883752,-0.215608884195034,0.0399798384276102,1382.06142698431,1382.06142698431,-0.215608884195034,-0.783006790599975,2198.0
1.08,501.6703409632272,14.046479197839137,48524.61971939306,1234.3439794364592,47290.275739956596,1382.06142698431,1382.06142698431,-0.783006790599975,0.0440064186883752,-0.215608884195034,0.0399798384276102,1382.06142698431,1382.06142698431,-0.215608884195034,-0.783006790599975,2198.0
1.12,510.5616505469492,14.914290527752806,49384.6414929129,1310.6034943852637,48074.03799852764,1382.06142698431,1382.06142698431,-0.783006790599975,0.0440064186883752,-0.215608884195034,0.0399798384276102,1382.06142698431,1382.06142698431,-0.215608884195034,-0.783006790599975,2198.0
1.16,518.9696096253389,15.795927020360534,50197.91065311822,1388.0779049741632,48809.83274814406,1382.06142698431,1382.06142698431,-0.783006790599975,0.0440064186883752,-0.215608884195034,0.0399798384276102,1382.06142698431,1382.06142698431,-0.215608884195034,-0.783006790599975,2198.0
1.2,526.910918604937,16.69053131381902,50966.04256534033,1466.6918699440016,49499.35069539633,1382.06142698431,1382.06142698431,-0.783006790599975,0.0440064186883752,-0.215608884195034,0.0399798384276102,1382.06142698431,1382.06142698431,-0.215608884195034,-0.783006790599975,2198.0
1.24,534.4017475115826,17.59727588043566,51690.601293249376,1546.3726697320476,50144.22862351733,1382.06142698431,1382.06142698431,-0.783006790599975,0.0440064186883752,-0.215608884195034,0.0399798384276102,1382.06142698431,1382.06142698431,-0.215608884195034,-0.783006790599975,2198.0
1.28,541.457752477099,18.515361747862805,52373.10119354731,1627.0500940960637,50746.051099451244,1382.06142698431,1382.06142698431,-0.783006790599975,0.0440064186883752,-0.215608884195034,0.0399798384276102,1382.06142698431,1382.06142698431,-0.215608884195034,-0.783006790599975,2198.0
1.32,548.0940917164805,19.44401964639177,53015.00846137896,1708.6565429335549,51306.351918445405,1382.06142698431,1382.06142698431,-0.783006790599975,0.0440064186883752,-0.215608884195034,0.0399798384276102,1382.06142698431,1382.06142698431,-0.215608884195034,-0.783006790599975,2198.0
1.36,554.3254410112933,20.382511025615834,53617.74262798112,1791.1271156217235,51826.61551235939,1382.06142698431,1382.06142698431,-0.783006790599975,0.0440064186883752,-0.215608884195034,0.0399798384276102,1382.06142698431,1382.06142698431,-0.215608884195034,-0.783006790599975,2198.0
1.4000000000000001,560.1660087145303,21.33011692286088,54182.67801204386,1874.3986328231906,52308.27937922067,1382.06142698431,1382.06142698431,-0.783006790599975,0.0440064186883752,-0.215608884195034,0.0399798384276102,1382.06142698431,1382.06142698431,-0.215608884195034,-0.783006790599975,2198.0
1.44,565.6295502916873,22.286145727130204,54711.14512621211,1958.4103187479604,52752.73480746415,1382.06142698431,1382.06142698431,-0.783006790599975,0.0440064186883752,-0.215608884195034,0.0399798384276102,1382.06142698431,1382.06142698431,-0.215608884195034,-0.783006790599975,2198.0
1.48,570.7293824123647,23.249934445021587,55204.43204011152,2043.1039123967535,53161.32812771476,1382.06142698431,1382.06142698431,-0.783006790599975,0.0440064186883752,-0.215608884195034,0.0399798384276102,1382.06142698431,1382.06142698431,-0.215608884195034,-0.783006790599975,2198.0
1.52,575.4783966062681,24.220844479349157,55663.78570124026,2128.423296604509,53535.36240463575,1382.06142698431,1382.06142698431,-0.783006790599975,0.0440064186883752,-0.215608884195034,0.0399798384276102,1382.06142698431,1382.06142698431,-0.215608884195034,-0.783006790599975,2198.0
1.56,579.8890724970487,25.19825554248519,56090.41321502687,2214.313963171128,53876.09925185574,1382.06142698431,1382.06142698431,-0.783006790599975,0.0440064186883752,-0.215608884195034,0.0399798384276102,1382.06142698431,1382.06142698431,-0.215608884195034,-0.783006790599975,2198.0
1.6,583.9734906270082,26.181571418239262,56485.483085314074,2300.72351919055,54184.759566123525,1382.06142698431,1382.06142698431,-0.783006790599975,0.0440064186883752,-0.215608884195034,0.0399798384276102,1382.06142698431,1382.06142698431,-0.215608884195034,-0.783006790599975,2198.0
1.6400000000000001,587.7433448852934,27.170222186358913,56850.12641648966,2387.6018825302726,54462.52453395938,1382.06142698431,1382.06142698431,-0.783006790599975,0.0440064186883752,-0.215608884195034,0.0399798384276102,1382.06142698431,1382.06142698431,-0.215608884195034,-0.783006790599975,2198.0
1.68,591.2099545518175,28.163655831058882,57185.43807844814,2474.90054442511,54710.53753402303,1382.06142698431,1382.06142698431,-0.783006790599975,0.0440064186883752,-0.215608884195034,0.0399798384276102,1382.06142698431,1382.06142698431,-0.215608884195034,-0.783006790599975,2198.0
1.72,594.3842759687642,29.161339749099714,57492.47783552988,2562.5727020006343,54929.905133529246,1382.06142698431,1382.06142698431,-0.783006790599975,0.0440064186883752,-0.215608884195034,0.0399798384276102,1382.06142698431,1382.06142698431,-0.215608884195034,-0.783006790599975,2198.0
1.76,597.2769138511685,30.162761549556365,57772.27144054961,2650.5733285533897,55121.698111996215,1382.06142698431,1382.06142698431,-0.783006790599975,0.0440064186883752,-0.215608884195034,0.0399798384276102,1382.06142698431,1382.06142698431,-0.215608884195034,-0.783006790599975,2198.0
1.8,599.8981322477109,31.167432296973853,58025.81169499137,2738.859458545415,55286.952236445955,1382.06142698431,1382.06142698431,-0.783006790599975,0.0440064186883752,-0.215608884195034,0.0399798384276102,1382.06142698431,1382.06142698431,-0.215608884195034,-0.783006790599975,2198.0
1.84,602.2578651625211,32.17487644739908,58254.05947641421,2827.3893032261485,55426.67017318806,1382.06142698431,1382.06142698431,-0.783006790599975,0.0440064186883752,-0.215608884195034,0.0399798384276102,1382.06142698431,1382.06142698431,-0.215608884195034,-0.783006790599975,2198.0
1.8800000000000001,604.36572684845,33.184637651458566,58457.94473408041,2916.1227605818594,55541.821973498554,1382.06142698431,1382.06142698431,-0.783006790599975,0.0440064186883752,-0.215608884195034,0.0399798384276102,1382.06142698431,1382.06142698431,-0.215608884195034,-0.783006790599975,2198.0
1.92,606.2310217819522,34.19627712716133,58638.367453786974,3005.0212723445834,55633.34618144239,1382.06142698431,1382.06142698431,-0.783006790599975,0.0440064186883752,-0.215608884195034,0.0399798384276102,1382.06142698431,1382.06142698431,-0.215608884195034,-0.783006790599975,2198.0
1.96,607.8627543294018,35.209375865156176,58796.19859285077,3094.0480177806203,55702.15057507015,1382.06142698431,1382.06142698431,-0.783006790599975,0.0440064186883752,-0.215608884195034,0.0399798384276102,1382.06142698431,1382.06142698431,-0.215608884195034,-0.783006790599975,2198.0
2.0,609.2696381143677,36.22352666901502,58932.280986168604,3183.167214224978,55749.11377194362,1382.06142698431,1382.06142698431,-0.783006790599975,0.0440064186883752,-0.215608884195034,0.0399798384276102,1382.06142698431,1382.06142698431,-0.215608884195034,-0.783006790599975,2198.0
2.04,610.4601050950746,37.23833905604659,59047.430224244716,3272.3445477437335,55775.08567650098,1382.06142698431,1382.06142698431,-0.783006790599975,0.0440064186883752,-0.215608884195034,0.0399798384276102,1382.06142698431,1382.06142698431,-0.215608884195034,-0.783006790599975,2198.0
2.08,611.4423143609979,38.25343891025415,59142.43550405113,3361.5471426374547,55780.88836141367,1382.06142698431,1382.06142698431,-0.783006790599975,0.0440064186883752,-0.215608884195034,0.0399798384276102,1382.06142698431,1382.06142698431,-0.215608884195034,-0.783006790599975,2198.0
2.12,612.2241606572575,39.26846842633764,59218.06045355914,3450.743556520352,55767.31689703879,1382.06142698431,1382.06142698431,-0.783006790599975,0.0440064186883752,-0.215608884195034,0.0399798384276102,1382.06142698431,1382.06142698431,-0.215608884195034,-0.783006790599975,2198.0
2.16,612.8132826452147,40.28308027487522,59275.043930754684,3539.9032675816056,55735.14066317308,1382.06142698431,1382.06142698431,-0.783006790599975,0.0440064186883752,-0.215608884195034,0.0399798384276102,1382.06142698431,1382.06142698431,-0.215608884195034,-0.783006790599975,2198.0
2.2,613.2170709074151,41.29694179981374,59314.100797925275,3628.997043442723,55685.10375448255,1382.06142698431,1382.06142698431,-0.783006790599975,0.0440064186883752,-0.215608884195034,0.0399798384276102,1382.06142698431,1382.06142698431,-0.215608884195034,-0.783006790599975,2198.0
2.24,613.442675704765,42.30973582849883,59335.92267198156,3717.9970123394814,55617.92565964208,1382.06142698431,1382.06142698431,-0.783006790599975,0.0440064186883752,-0.215608884195034,0.0399798384276102,1382.06142698431,1382.06142698431,-0.215608884195034,-0.783006790599975,2198.0
2.2800000000000002,613.4970144935924,43.3211575106007,59341.17865155333,3806.876385340368,55534.302266212966,1382.06142698431,1382.06142698431,-0.783006790599975,0.0440064186883752,-0.215608884195034,0.0399798384276102,1382.06142698431,1382.06142698431,-0.215608884195034,-0.783006790599975,2198.0
2.32,613.3867792100037,44.33091241761584,59330.51602157698,3895.609289338994,55434.906732237985,1382.06142698431,1382.06142698431,-0.783006790599975,0.0440064186883752,-0.215608884195034,0.0399798384276102,1382.06142698431,1382.06142698431,-0.215608884195034,-0.783006790599975,2198.0
2.36,613.1184433287196,45.33871870461522,59304.56093606928,3984.1709570191956,55320.38997905009,1382.06142698431,1382.06142698431,-0.783006790599975,0.0440064186883752,-0.215608884195034,0.0399798384276102,1382.06142698431,1382.06142698431,-0.215608884195034,-0.783006790599975,2198.0
2.4,612.69826870335,46.34430894233689,59263.919079760504,4072.5378878514266,55191.38119190908,1382.06142698431,1382.06142698431,-0.783006790599975,0.0440064186883752,-0.215608884195034,0.0399798384276102,1382.06142698431,1382.06142698431,-0.215608884195034,-0.783006790599975,2198.0
2.44,612.132312194857,47.34742441960662,59209.17630923992,4160.687347414069,55048.48896182585,1382.06142698431,1382.06142698431,-0.783006790599975,0.0440064186883752,-0.215608884195034,0.0399798384276102,1382.06142698431,1382.06142698431,-0.215608884195034,-0.783006790599975,2198.0
2.48,611.4264320947458,48.34781717749057,59140.899274245945,4248.597546145994,54892.30172809995,1382.06142698431,1382.06142698431,-0.783006790599975,0.0440064186883752,-0.215608884195034,0.0399798384276102,1382.06142698431,1382.06142698431,-0.215608884195034,-0.783006790599975,2198.0
2.52,610.5862943493169,49.3452499474066,59059.63601971395,4336.2476339080495,54723.3883858059,1382.06142698431,1382.06142698431,-0.783006790599975,0.0440064186883752,-0.215608884195034,0.0399798384276102,1382.06142698431,1382.06142698431,-0.215608884195034,-0.783006790599975,2198.0
2.56,609.6173785911245,50.339498283628906,58965.91656917569,4423.617887378365,54542.29868179733,1382.06142698431,1382.06142698431,-0.783006790599975,0.0440064186883752,-0.215608884195034,0.0399798384276102,1382.06142698431,1382.06142698431,-0.215608884195034,-0.783006790599975,2198.0
2.6,608.5249839835934,51.33034425709695,58860.25349008638,4510.689155891494,54349.56433419489,1382.06142698431,1382.06142698431,-0.783006790599975,0.0440064186883752,-0.215608884195034,0.0399798384276102,1382.06142698431,1382.06142698431,-0.215608884195034,-0.783006790599975,2198.0
2.64,607.3142348845606,52.317580276346824,58743.142441637,4597.443197205375,54145.69924443163,1382.06142698431,1382.06142698431,-0.783006790599975,0.0440064186883752,-0.215608884195034,0.0399798384276102,1382.06142698431,1382.06142698431,-0.215608884195034,-0.783006790599975,2198.0
2.68,605.9900863343346,53.30100823123378,58615.062705592936,4683.862602255358,53931.20010333758,1382.06142698431,1382.06142698431,-0.783006790599975,0.0440064186883752,-0.215608884195034,0.0399798384276102,1382.06142698431,1382.06142698431,-0.215608884195034,-0.783006790599975,2198.0
2.72,604.5573293736905,54.280440495479,58476.47770068298,4769.930883253694,53706.54681742929,1382.06142698431,1382.06142698431,-0.783006790599975,0.0440064186883752,-0.215608884195034,0.0399798384276102,1382.06142698431,1382.06142698431,-0.215608884195034,-0.783006790599975,2198.0
